
**** 07/25/21 00:04:54 ****** PSpice Lite (October 2012) ****** ID# 10813 ****

 ** Profile: "SCHEMATIC1-diff"  [ C:\Users\prana\OneDrive\Documents\GitHub\analog-function-and-filter\continumm_ps2-2\differen-pspice


 ****     CIRCUIT DESCRIPTION


******************************************************************************




** Creating circuit file "diff.cir" 
** WARNING: THIS AUTOMATICALLY GENERATED FILE MAY BE OVERWRITTEN BY SUBSEQUENT SIMULATIONS

*Libraries: 
* Profile Libraries :
* Local Libraries :
.LIB "../../../differen-pspicefiles/differen.lib" 
* From [PSPICE NETLIST] section of C:\Users\prana\AppData\Roaming\SPB_16.6\cdssetup\OrCAD_PSpice/16.6.0/PSpice.ini file:
.lib "nomd.lib" 

*Analysis directives: 
.TRAN  0 0.02s 0 0.0001 
.OPTIONS ADVCONV
.PROBE64 V(alias(*)) I(alias(*)) W(alias(*)) D(alias(*)) NOISE(alias(*)) 
.INC "..\SCHEMATIC1.net" 



**** INCLUDING SCHEMATIC1.net ****
* source DIFFEREN
E_U8         N51459 0 VALUE {LIMIT(V(0,N28108)*1E6,-15V,+15V)}
R_R1         N28108 N51459  1600 TC=0,0 
C_C1         N55662 N28108  0.000001  TC=0,0 
V_V1         N55662 0  AC 0
+SIN 0 2.5 100 0 0 0
E_U9         N29049 0 VALUE {LIMIT(V(0,N28987)*1E6,-15V,+15V)}
V_V2         N28991 0  AC 0
+SIN 0 2.5 100 0 0 0
R_R2         N28991 N28987  22 TC=0,0 
C_C2         N28987 N29049  0.000075  TC=0,0 
R_R3         N30453 N30563  755000 TC=0,0 
D_D2         N33750 N30453 Dbreak 
X_U2         0 N30453 N30447 N304273 N30457 uA741
V_V9         0 N304273 100
V_V10         N30447 0 100
D_D3         N33800 N33750 Dbreak 
V_V12         0 N337743 100
V_V13         N33794 0 100
R_R4         N33816 N33800  1000000 TC=0,0 
X_U10         0 N33800 N33794 N337743 N33750 uA741
V_V15         N30457 N30563 00
E_U12         N33816 0 VALUE {LIMIT(V(N48617,N48415)*1E6,-15V,+15V)}
D_D6         0 N48629 Dbreak 
R_R9         0 N48617  100000 TC=0,0 
D_D5         N48591 N48617 Dbreak 
R_R10         N48415 N33816  1450 TC=0,0 
R_R11         0 N48415  100 TC=0,0 
D_D7         N48629 N48617 Dbreak 
D_D4         0 N48591 Dbreak 
V_V17         N48591 N48629  AC 0
+SIN 0 5 100 0 0 0
R_R12         N29049 N50646  1000 TC=0,0 
R_R13         N30457 N50646  1000 TC=0,0 
R_R14         N50646 N52110  1000 TC=0,0 
R_R15         N51459 N50646  1000 TC=0,0 
X_U14         0 N50646 N52100 N520803 N52110 uA741
V_V19         N52100 0 100
V_V18         0 N520803 100
D_D8         N33750 N30453 Dbreak 

**** RESUMING diff.cir ****
.END

WARNING(ORPSIM-15223): Library file C:\Users\prana\OneDrive\Documents\GitHub\analog-function-and-filter\continumm_ps2-2\differen-pspicefiles\differen.lib has changed since index file differen.ind was created.

WARNING(ORPSIM-15227): The timestamp changed from Fri Apr 16 11:57:00 2021 to Sat Jul 24 20:02:04 2021.

INFO(ORPSIM-15422): Making new index file differen.ind for library file differen.lib.

Index has 1 entries from 1 file(s).

**** 07/25/21 00:04:54 ****** PSpice Lite (October 2012) ****** ID# 10813 ****

 ** Profile: "SCHEMATIC1-diff"  [ C:\Users\prana\OneDrive\Documents\GitHub\analog-function-and-filter\continumm_ps2-2\differen-pspice


 ****     Diode MODEL PARAMETERS


******************************************************************************




               Dbreak          X_U2.dx         X_U10.dx        X_U14.dx        
          IS    1.000000E-06  800.000000E-18  800.000000E-18  800.000000E-18 
           N   55                                                            
          RS     .1             1               1               1            
         CJO  100.000000E-15                                                 


**** 07/25/21 00:04:54 ****** PSpice Lite (October 2012) ****** ID# 10813 ****

 ** Profile: "SCHEMATIC1-diff"  [ C:\Users\prana\OneDrive\Documents\GitHub\analog-function-and-filter\continumm_ps2-2\differen-pspice


 ****     BJT MODEL PARAMETERS


******************************************************************************




               X_U2.qx         X_U10.qx        X_U14.qx        
               NPN             NPN             NPN             
       LEVEL    1               1               1            
          IS  800.000000E-18  800.000000E-18  800.000000E-18 
          BF   93.75           93.75           93.75         
          NF    1               1               1            
          BR    1               1               1            
          NR    1               1               1            
         ISS    0               0               0            
          RE    0               0               0            
          RC    0               0               0            
         CJE    0               0               0            
         VJE     .75             .75             .75         
         CJC    0               0               0            
         VJC     .75             .75             .75         
         MJC     .33             .33             .33         
        XCJC    1               1               1            
         CJS    0               0               0            
         VJS     .75             .75             .75         
          KF    0               0               0            
          AF    1               1               1            
          CN    2.42            2.42            2.42         
           D     .87             .87             .87         


**** 07/25/21 00:04:54 ****** PSpice Lite (October 2012) ****** ID# 10813 ****

 ** Profile: "SCHEMATIC1-diff"  [ C:\Users\prana\OneDrive\Documents\GitHub\analog-function-and-filter\continumm_ps2-2\differen-pspice


 ****     INITIAL TRANSIENT SOLUTION       TEMPERATURE =   27.000 DEG C


******************************************************************************



 NODE   VOLTAGE     NODE   VOLTAGE     NODE   VOLTAGE     NODE   VOLTAGE


(N28108)    0.0000 (N28987)    0.0000 (N28991)    0.0000 (N29049)    0.0000     

(N30447)  100.0000 (N30453) 19.66E-06 (N30457)    -.0706 (N30563)    -.0706     

(N33750)     .1182 (N33794)  100.0000 (N33800) 18.66E-06 (N33816)    0.0000     

(N48415)    0.0000 (N48591)    0.0000 (N48617)    0.0000 (N48629)    0.0000     

(N50646) 18.84E-06 (N51459)    0.0000 (N52100)  100.0000 (N52110)     .0707     

(N55662)    0.0000 (X_U2.6) 7.678E-06 (X_U2.7)    -.0741 (X_U2.8)    -.0741     

(X_U2.9)    0.0000 (N304273) -100.0000                   (N337743) -100.0000    

(N520803) -100.0000                   (X_U10.6)-11.16E-06                       

(X_U10.7)     .1182                   (X_U10.8)     .1182                       

(X_U10.9)    0.0000                   (X_U14.6)-7.694E-06                       

(X_U14.7)     .0743                   (X_U14.8)     .0743                       

(X_U14.9)    0.0000                   (X_U2.10)    -.6077                       

(X_U2.11)   99.9600                   (X_U2.12)   99.9600                       

(X_U2.13)    -.5938                   (X_U2.14)    -.5938                       

(X_U2.53)   99.0000                   (X_U2.54)  -99.0000                       

(X_U2.90)    -.0707                   (X_U2.91)   40.0000                       

(X_U2.92)  -40.0000                   (X_U2.99)    0.0000                       

(X_U10.10)    -.6077                  (X_U10.11)   99.9600                      

(X_U10.12)   99.9600                  (X_U10.13)    -.5938                      

(X_U10.14)    -.5938                  (X_U10.53)   99.0000                      

(X_U10.54)  -99.0000                  (X_U10.90) 252.9E-06                      

(X_U10.91)   40.0000                  (X_U10.92)  -40.0000                      

(X_U10.99)    0.0000                  (X_U14.10)    -.6077                      

(X_U14.11)   99.9600                  (X_U14.12)   99.9600                      

(X_U14.13)    -.5938                  (X_U14.14)    -.5938                      

(X_U14.53)   99.0000                  (X_U14.54)  -99.0000                      

(X_U14.90)     .0707                  (X_U14.91)   40.0000                      

(X_U14.92)  -40.0000                  (X_U14.99)    0.0000                  




    VOLTAGE SOURCE CURRENTS
    NAME         CURRENT

    V_V1         0.000E+00
    V_V2         0.000E+00
    V_V9        -1.103E-02
    V_V10       -1.103E-02
    V_V12       -1.103E-02
    V_V13       -1.103E-02
    V_V15       -9.351E-08
    V_V17        0.000E+00
    V_V19       -1.103E-02
    V_V18       -1.103E-02
    X_U2.vb      7.678E-11
    X_U2.vc      9.907E-11
    X_U2.ve      9.894E-11
    X_U2.vlim   -7.069E-05
    X_U2.vlp    -4.007E-11
    X_U2.vln    -3.993E-11
    X_U10.vb    -1.116E-10
    X_U10.vc     9.888E-11
    X_U10.ve     9.913E-11
    X_U10.vlim   2.529E-07
    X_U10.vlp   -4.000E-11
    X_U10.vln   -4.000E-11
    X_U14.vb    -7.694E-11
    X_U14.vc     9.893E-11
    X_U14.ve     9.908E-11
    X_U14.vlim   7.072E-05
    X_U14.vlp   -3.993E-11
    X_U14.vln   -4.007E-11

    TOTAL POWER DISSIPATION   6.62E+00  WATTS



          JOB CONCLUDED

**** 07/25/21 00:04:54 ****** PSpice Lite (October 2012) ****** ID# 10813 ****

 ** Profile: "SCHEMATIC1-diff"  [ C:\Users\prana\OneDrive\Documents\GitHub\analog-function-and-filter\continumm_ps2-2\differen-pspice


 ****     JOB STATISTICS SUMMARY


******************************************************************************



  Total job time (using Solver 1)   =         .27
